 frequency       db(v(VOUT))     180*cph(v(VOUT))/pi
 1.00000000e+00 -1.69649279e-03 -9.32988756e-05 
 1.12201845e+00 -1.69649279e-03 -1.04683060e-04 
 1.25892541e+00 -1.69649280e-03 -1.17456325e-04 
 1.41253754e+00 -1.69649280e-03 -1.31788165e-04 
 1.58489319e+00 -1.69649280e-03 -1.47868753e-04 
 1.77827941e+00 -1.69649281e-03 -1.65911470e-04 
 1.99526231e+00 -1.69649282e-03 -1.86155731e-04 
 2.23872114e+00 -1.69649283e-03 -2.08870165e-04 
 2.51188643e+00 -1.69649284e-03 -2.34356180e-04 
 2.81838293e+00 -1.69649286e-03 -2.62951959e-04 
 3.16227766e+00 -1.69649288e-03 -2.95036950e-04 
 3.54813389e+00 -1.69649291e-03 -3.31036903e-04 
 3.98107171e+00 -1.69649294e-03 -3.71429514e-04 
 4.46683592e+00 -1.69649298e-03 -4.16750769e-04 
 5.01187234e+00 -1.69649303e-03 -4.67602054e-04 
 5.62341325e+00 -1.69649310e-03 -5.24658134e-04 
 6.30957344e+00 -1.69649318e-03 -5.88676108e-04 
 7.07945784e+00 -1.69649329e-03 -6.60505457e-04 
 7.94328235e+00 -1.69649342e-03 -7.41099312e-04 
 8.91250938e+00 -1.69649358e-03 -8.31527104e-04 
 1.00000000e+01 -1.69649379e-03 -9.32988756e-04 
 1.12201845e+01 -1.69649405e-03 -1.04683060e-03 
 1.25892541e+01 -1.69649438e-03 -1.17456325e-03 
 1.41253754e+01 -1.69649480e-03 -1.31788165e-03 
 1.58489319e+01 -1.69649532e-03 -1.47868753e-03 
 1.77827941e+01 -1.69649598e-03 -1.65911469e-03 
 1.99526231e+01 -1.69649681e-03 -1.86155731e-03 
 2.23872114e+01 -1.69649785e-03 -2.08870165e-03 
 2.51188643e+01 -1.69649916e-03 -2.34356180e-03 
 2.81838293e+01 -1.69650082e-03 -2.62951958e-03 
 3.16227766e+01 -1.69650290e-03 -2.95036950e-03 
 3.54813389e+01 -1.69650552e-03 -3.31036902e-03 
 3.98107171e+01 -1.69650882e-03 -3.71429514e-03 
 4.46683592e+01 -1.69651297e-03 -4.16750769e-03 
 5.01187234e+01 -1.69651820e-03 -4.67602053e-03 
 5.62341325e+01 -1.69652478e-03 -5.24658132e-03 
 6.30957344e+01 -1.69653306e-03 -5.88676106e-03 
 7.07945784e+01 -1.69654350e-03 -6.60505455e-03 
 7.94328235e+01 -1.69655663e-03 -7.41099308e-03 
 8.91250938e+01 -1.69657316e-03 -8.31527100e-03 
 1.00000000e+02 -1.69659397e-03 -9.32988750e-03 
 1.12201845e+02 -1.69662017e-03 -1.04683059e-02 
 1.25892541e+02 -1.69665316e-03 -1.17456324e-02 
 1.41253754e+02 -1.69669468e-03 -1.31788163e-02 
 1.58489319e+02 -1.69674696e-03 -1.47868750e-02 
 1.77827941e+02 -1.69681278e-03 -1.65911466e-02 
 1.99526231e+02 -1.69689563e-03 -1.86155725e-02 
 2.23872114e+02 -1.69699994e-03 -2.08870157e-02 
 2.51188643e+02 -1.69713126e-03 -2.34356169e-02 
 2.81838293e+02 -1.69729658e-03 -2.62951943e-02 
 3.16227766e+02 -1.69750470e-03 -2.95036929e-02 
 3.54813389e+02 -1.69776671e-03 -3.31036873e-02 
 3.98107171e+02 -1.69809656e-03 -3.71429471e-02 
 4.46683592e+02 -1.69851182e-03 -4.16750709e-02 
 5.01187234e+02 -1.69903461e-03 -4.67601969e-02 
 5.62341325e+02 -1.69969264e-03 -5.24658013e-02 
 6.30957344e+02 -1.70052120e-03 -5.88675938e-02 
 7.07945784e+02 -1.70156428e-03 -6.60505217e-02 
 7.94328235e+02 -1.70287745e-03 -7.41098972e-02 
 8.91250938e+02 -1.70453063e-03 -8.31526625e-02 
 1.00000000e+03 -1.70661186e-03 -9.32988080e-02 
 1.12201845e+03 -1.70923197e-03 -1.04682965e-01 
 1.25892541e+03 -1.71253049e-03 -1.17456190e-01 
 1.41253754e+03 -1.71668297e-03 -1.31787974e-01 
 1.58489319e+03 -1.72191076e-03 -1.47868483e-01 
 1.77827941e+03 -1.72849216e-03 -1.65911089e-01 
 1.99526231e+03 -1.73677741e-03 -1.86155193e-01 
 2.23872114e+03 -1.74720818e-03 -2.08869406e-01 
 2.51188643e+03 -1.76033959e-03 -2.34355107e-01 
 2.81838293e+03 -1.77687093e-03 -2.62950444e-01 
 3.16227766e+03 -1.79768271e-03 -2.95034810e-01 
 3.54813389e+03 -1.82388288e-03 -3.31033880e-01 
 3.98107171e+03 -1.85686690e-03 -3.71425244e-01 
 4.46683592e+03 -1.89839080e-03 -4.16744738e-01 
 5.01187234e+03 -1.95066596e-03 -4.67593535e-01 
 5.62341325e+03 -2.01647525e-03 -5.24646100e-01 
 6.30957344e+03 -2.09933111e-03 -5.88659111e-01 
 7.07945784e+03 -2.20362801e-03 -6.60481448e-01 
 7.94328235e+03 -2.33492653e-03 -7.41065400e-01 
 8.91250938e+03 -2.50021594e-03 -8.31479203e-01 
 1.00000000e+04 -2.70829414e-03 -9.32921096e-01 
 1.12201845e+04 -2.97023513e-03 -1.04673503e+00 
 1.25892541e+04 -3.29997664e-03 -1.17442827e+00 
 1.41253754e+04 -3.71506132e-03 -1.31769098e+00 
 1.58489319e+04 -4.23757393e-03 -1.47841823e+00 
 1.77827941e+04 -4.89527913e-03 -1.65873433e+00 
 1.99526231e+04 -5.72314028e-03 -1.86102009e+00 
 2.23872114e+04 -6.76514031e-03 -2.08794292e+00 
 2.51188643e+04 -8.07658500e-03 -2.34249026e+00 
 2.81838293e+04 -9.72703394e-03 -2.62800634e+00 
 3.16227766e+04 -1.18039372e-02 -2.94823259e+00 
 3.54813389e+04 -1.44171971e-02 -3.30735166e+00 
 3.98107171e+04 -1.77048789e-02 -3.71003492e+00 
 4.46683592e+04 -2.18403036e-02 -4.16149340e+00 
 5.01187234e+04 -2.70409339e-02 -4.66753121e+00 
 5.62341325e+04 -3.35793356e-02 -5.23460066e+00 
 6.30957344e+04 -4.17967962e-02 -5.86985711e+00 
 7.07945784e+04 -5.21200268e-02 -6.58121108e+00 
 7.94328235e+04 -6.50815826e-02 -7.37737352e+00 
 8.91250938e+04 -8.13446761e-02 -8.26788871e+00 
 1.00000000e+05 -1.01732931e-01 -9.26314668e+00 
 1.12201845e+05 -1.27265569e-01 -1.03743646e+01 
 1.25892541e+05 -1.59198367e-01 -1.16135226e+01 
 1.41253754e+05 -1.99070101e-01 -1.29932357e+01 
 1.58489319e+05 -2.48753376e-01 -1.45265394e+01 
 1.77827941e+05 -3.10507638e-01 -1.62265623e+01 
 1.99526231e+05 -3.87030079e-01 -1.81060579e+01 
 2.23872114e+05 -4.81497852e-01 -2.01767705e+01 
 2.51188643e+05 -5.97592143e-01 -2.24486198e+01 
 2.81838293e+05 -7.39491313e-01 -2.49287098e+01 
 3.16227766e+05 -9.11818522e-01 -2.76202025e+01 
 3.54813389e+05 -1.11952883e+00 -3.05211494e+01 
 3.98107171e+05 -1.36772484e+00 -3.36234294e+01 
 4.46683592e+05 -1.66139929e+00 -3.69119995e+01 
 5.01187234e+05 -2.00511804e+00 -4.03646904e+01 
 5.62341325e+05 -2.40267547e+00 -4.39527488e+01 
 6.30957344e+05 -2.85677090e+00 -4.76422301e+01 
 7.07945784e+05 -3.36876209e+00 -5.13961778e+01 
 7.94328235e+05 -3.93854526e+00 -5.51773469e+01 
 8.91250938e+05 -4.56458767e+00 -5.89510801e+01 
 1.00000000e+06 -5.24410796e+00 -6.26879111e+01 
 1.12201845e+06 -5.97337032e+00 -6.63655473e+01 
 1.25892541e+06 -6.74803937e+00 -6.99700402e+01 
 1.41253754e+06 -7.56354241e+00 -7.34961453e+01 
 1.58489319e+06 -8.41539565e+00 -7.69470118e+01 
 1.77827941e+06 -9.29947037e+00 -8.03334258e+01 
 1.99526231e+06 -1.02121932e+01 -8.36728370e+01 
 2.23872114e+06 -1.11506869e+01 -8.69883601e+01 
 2.51188643e+06 -1.21128684e+01 -9.03078874e+01 
 2.81838293e+06 -1.30975232e+01 -9.36633987e+01 
 3.16227766e+06 -1.41043751e+01 -9.70905087e+01 
 3.54813389e+06 -1.51341764e+01 -1.00628276e+02 
 3.98107171e+06 -1.61888400e+01 -1.04319284e+02 
 4.46683592e+06 -1.72716551e+01 -1.08209985e+02 
 5.01187234e+06 -1.83876410e+01 -1.12351206e+02 
 5.62341325e+06 -1.95441186e+01 -1.16798441e+02 
 6.30957344e+06 -2.07515688e+01 -1.21611031e+02 
 7.07945784e+06 -2.20247356e+01 -1.26848788e+02 
 7.94328235e+06 -2.33837304e+01 -1.32565031e+02 
 8.91250938e+06 -2.48548525e+01 -1.38797295e+02 
 1.00000000e+07 -2.64713388e+01 -1.45558473e+02 
 1.12201845e+07 -2.82748707e+01 -1.52827392e+02 
 1.25892541e+07 -3.03183138e+01 -1.60530751e+02 
 1.41253754e+07 -3.26689955e+01 -1.68507391e+02 
 1.58489319e+07 -3.54115603e+01 -1.76452298e+02 
 1.77827941e+07 -3.86513361e+01 -1.83839197e+02 
 1.99526231e+07 -4.25235479e+01 -1.89796113e+02 
 2.23872114e+07 -4.72216264e+01 -1.92796659e+02 
 2.51188643e+07 -5.30634937e+01 -1.89516934e+02 
 2.81838293e+07 -6.03646164e+01 -1.69374460e+02 
 3.16227766e+07 -6.50202781e+01 -1.10757895e+02 
 3.54813389e+07 -6.27588839e+01 -6.77829685e+01 
 3.98107171e+07 -6.06604537e+01 -4.76827670e+01 
 4.46683592e+07 -5.90939639e+01 -3.43695799e+01 
 5.01187234e+07 -5.77448541e+01 -2.49675724e+01 
 5.62341325e+07 -5.65823752e+01 -1.86760639e+01 
 6.30957344e+07 -5.56324389e+01 -1.46830957e+01 
 7.07945784e+07 -5.48945056e+01 -1.22226892e+01 
 7.94328235e+07 -5.43441902e+01 -1.07107728e+01 
 8.91250938e+07 -5.39480426e+01 -9.74956645e+00 
 1.00000000e+08 -5.36725786e+01 -9.08463444e+00 
 1.12201845e+08 -5.34881614e+01 -8.56135652e+00 
 1.25892541e+08 -5.33702137e+01 -8.09171366e+00 
 1.41253754e+08 -5.32992337e+01 -7.63074990e+00 
 1.58489319e+08 -5.32603025e+01 -7.16020512e+00 
 1.77827941e+08 -5.32423893e+01 -6.67727707e+00 
 1.99526231e+08 -5.32376097e+01 -6.18710735e+00 
 2.23872114e+08 -5.32405204e+01 -5.69799149e+00 
 2.51188643e+08 -5.32475005e+01 -5.21854999e+00 
 2.81838293e+08 -5.32562391e+01 -4.75624955e+00 
 3.16227766e+08 -5.32653351e+01 -4.31679888e+00 
 3.54813389e+08 -5.32739963e+01 -3.90406278e+00 
 3.98107171e+08 -5.32818236e+01 -3.52024876e+00 
 4.46683592e+08 -5.32886609e+01 -3.16620697e+00 
 5.01187234e+08 -5.32944948e+01 -2.84175081e+00 
 5.62341325e+08 -5.32993891e+01 -2.54595000e+00 
 6.30957344e+08 -5.33034441e+01 -2.27737567e+00 
 7.07945784e+08 -5.33067723e+01 -2.03429379e+00 
 7.94328235e+08 -5.33094843e+01 -1.81481041e+00 
 8.91250938e+08 -5.33116820e+01 -1.61697684e+00 
 1.00000000e+09 -5.33134552e+01 -1.43886218e+00 
