 frequency       db(v(VOUT))     180*cph(v(VOUT))/pi
 1.00000000e+00 -2.44580325e-03 -1.12637464e-04 
 1.12201845e+00 -2.44580326e-03 -1.26381314e-04 
 1.25892541e+00 -2.44580326e-03 -1.41802166e-04 
 1.41253754e+00 -2.44580327e-03 -1.59104647e-04 
 1.58489319e+00 -2.44580328e-03 -1.78518351e-04 
 1.77827941e+00 -2.44580329e-03 -2.00300884e-04 
 1.99526231e+00 -2.44580330e-03 -2.24741288e-04 
 2.23872114e+00 -2.44580332e-03 -2.52163873e-04 
 2.51188643e+00 -2.44580334e-03 -2.82932518e-04 
 2.81838293e+00 -2.44580336e-03 -3.17455507e-04 
 3.16227766e+00 -2.44580339e-03 -3.56190937e-04 
 3.54813389e+00 -2.44580343e-03 -3.99652805e-04 
 3.98107171e+00 -2.44580348e-03 -4.48417822e-04 
 4.46683592e+00 -2.44580355e-03 -5.03133072e-04 
 5.01187234e+00 -2.44580363e-03 -5.64524592e-04 
 5.62341325e+00 -2.44580373e-03 -6.33407010e-04 
 6.30957344e+00 -2.44580385e-03 -7.10694354e-04 
 7.07945784e+00 -2.44580401e-03 -7.97412181e-04 
 7.94328235e+00 -2.44580421e-03 -8.94711182e-04 
 8.91250938e+00 -2.44580446e-03 -1.00388246e-03 
 1.00000000e+01 -2.44580478e-03 -1.12637464e-03 
 1.12201845e+01 -2.44580518e-03 -1.26381314e-03 
 1.25892541e+01 -2.44580568e-03 -1.41802166e-03 
 1.41253754e+01 -2.44580631e-03 -1.59104647e-03 
 1.58489319e+01 -2.44580710e-03 -1.78518350e-03 
 1.77827941e+01 -2.44580810e-03 -2.00300884e-03 
 1.99526231e+01 -2.44580936e-03 -2.24741288e-03 
 2.23872114e+01 -2.44581095e-03 -2.52163872e-03 
 2.51188643e+01 -2.44581294e-03 -2.82932518e-03 
 2.81838293e+01 -2.44581545e-03 -3.17455507e-03 
 3.16227766e+01 -2.44581862e-03 -3.56190937e-03 
 3.54813389e+01 -2.44582260e-03 -3.99652804e-03 
 3.98107171e+01 -2.44582761e-03 -4.48417822e-03 
 4.46683592e+01 -2.44583392e-03 -5.03133071e-03 
 5.01187234e+01 -2.44584187e-03 -5.64524590e-03 
 5.62341325e+01 -2.44585187e-03 -6.33407008e-03 
 6.30957344e+01 -2.44586446e-03 -7.10694351e-03 
 7.07945784e+01 -2.44588031e-03 -7.97412176e-03 
 7.94328235e+01 -2.44590027e-03 -8.94711176e-03 
 8.91250938e+01 -2.44592539e-03 -1.00388245e-02 
 1.00000000e+02 -2.44595702e-03 -1.12637463e-02 
 1.12201845e+02 -2.44599684e-03 -1.26381312e-02 
 1.25892541e+02 -2.44604697e-03 -1.41802164e-02 
 1.41253754e+02 -2.44611008e-03 -1.59104644e-02 
 1.58489319e+02 -2.44618952e-03 -1.78518345e-02 
 1.77827941e+02 -2.44628954e-03 -2.00300877e-02 
 1.99526231e+02 -2.44641546e-03 -2.24741278e-02 
 2.23872114e+02 -2.44657398e-03 -2.52163858e-02 
 2.51188643e+02 -2.44677354e-03 -2.82932498e-02 
 2.81838293e+02 -2.44702478e-03 -3.17455479e-02 
 3.16227766e+02 -2.44734107e-03 -3.56190897e-02 
 3.54813389e+02 -2.44773925e-03 -3.99652748e-02 
 3.98107171e+02 -2.44824053e-03 -4.48417742e-02 
 4.46683592e+02 -2.44887161e-03 -5.03132959e-02 
 5.01187234e+02 -2.44966609e-03 -5.64524432e-02 
 5.62341325e+02 -2.45066628e-03 -6.33406784e-02 
 6.30957344e+02 -2.45192544e-03 -7.10694035e-02 
 7.07945784e+02 -2.45351063e-03 -7.97411730e-02 
 7.94328235e+02 -2.45550627e-03 -8.94710546e-02 
 8.91250938e+02 -2.45801863e-03 -1.00388156e-01 
 1.00000000e+03 -2.46118150e-03 -1.12637337e-01 
 1.12201845e+03 -2.46516331e-03 -1.26381134e-01 
 1.25892541e+03 -2.47017612e-03 -1.41801913e-01 
 1.41253754e+03 -2.47648685e-03 -1.59104289e-01 
 1.58489319e+03 -2.48443158e-03 -1.78517845e-01 
 1.77827941e+03 -2.49443338e-03 -2.00300169e-01 
 1.99526231e+03 -2.50702487e-03 -2.24740279e-01 
 2.23872114e+03 -2.52287656e-03 -2.52162447e-01 
 2.51188643e+03 -2.54283258e-03 -2.82930505e-01 
 2.81838293e+03 -2.56795560e-03 -3.17452663e-01 
 3.16227766e+03 -2.59958339e-03 -3.56186920e-01 
 3.54813389e+03 -2.63940008e-03 -3.99647130e-01 
 3.98107171e+03 -2.68952582e-03 -4.48409807e-01 
 4.46683592e+03 -2.75262957e-03 -5.03121750e-01 
 5.01187234e+03 -2.83207118e-03 -5.64508599e-01 
 5.62341325e+03 -2.93208018e-03 -6.33384419e-01 
 6.30957344e+03 -3.05798078e-03 -7.10662444e-01 
 7.07945784e+03 -3.21647507e-03 -7.97367108e-01 
 7.94328235e+03 -3.41599936e-03 -8.94647517e-01 
 8.91250938e+03 -3.66717255e-03 -1.00379253e+00 
 1.00000000e+04 -3.98336025e-03 -1.12624763e+00 
 1.12201845e+04 -4.38138432e-03 -1.26363373e+00 
 1.25892541e+04 -4.88241519e-03 -1.41776826e+00 
 1.41253754e+04 -5.51309370e-03 -1.59068856e+00 
 1.58489319e+04 -6.30694098e-03 -1.78467800e+00 
 1.77827941e+04 -7.30612966e-03 -2.00229489e+00 
 1.99526231e+04 -8.56370763e-03 -2.24640457e+00 
 2.23872114e+04 -1.01463880e-02 -2.52021476e+00 
 2.51188643e+04 -1.21380466e-02 -2.82731434e+00 
 2.81838293e+04 -1.46441012e-02 -3.17171565e+00 
 3.16227766e+04 -1.77969866e-02 -3.55790034e+00 
 3.54813389e+04 -2.17629896e-02 -3.99086824e+00 
 3.98107171e+04 -2.67507587e-02 -4.47618903e+00 
 4.46683592e+04 -3.30218719e-02 -5.02005546e+00 
 5.01187234e+04 -4.09039103e-02 -5.62933652e+00 
 5.62341325e+04 -5.08065567e-02 -6.31162823e+00 
 6.30957344e+04 -6.32413009e-02 -7.07529802e+00 
 7.07945784e+04 -7.88453746e-02 -7.92951773e+00 
 7.94328235e+04 -9.84105333e-02 -8.88427735e+00 
 8.91250938e+04 -1.22917219e-01 -9.95036946e+00 
 1.00000000e+05 -1.53574411e-01 -1.11393306e+01 
 1.12201845e+05 -1.91865032e-01 -1.24633216e+01 
 1.25892541e+05 -2.39596033e-01 -1.39349259e+01 
 1.41253754e+05 -2.98951077e-01 -1.55668383e+01 
 1.58489319e+05 -3.72542018e-01 -1.73714179e+01 
 1.77827941e+05 -4.63453024e-01 -1.93600783e+01 
 1.99526231e+05 -5.75268313e-01 -2.15424968e+01 
 2.23872114e+05 -7.12071404e-01 -2.39256437e+01 
 2.51188643e+05 -8.78401355e-01 -2.65126667e+01 
 2.81838293e+05 -1.07915085e+00 -2.93017089e+01 
 3.16227766e+05 -1.31939408e+00 -3.22848029e+01 
 3.54813389e+05 -1.60414074e+00 -3.54470372e+01 
 3.98107171e+05 -1.93802641e+00 -3.87662241e+01 
 4.46683592e+05 -2.32496811e+00 -4.22132827e+01 
 5.01187234e+05 -2.76783088e+00 -4.57534627e+01 
 5.62341325e+05 -3.26816127e+00 -4.93483780e+01 
 6.30957344e+05 -3.82603905e+00 -5.29586354e+01 
 7.07945784e+05 -4.44007814e+00 -5.65466901e+01 
 7.94328235e+05 -5.10757786e+00 -6.00794981e+01 
 8.91250938e+05 -5.82479377e+00 -6.35305958e+01 
 1.00000000e+06 -6.58727796e+00 -6.68813829e+01 
 1.12201845e+06 -7.39023309e+00 -7.01215804e+01 
 1.25892541e+06 -8.22883448e+00 -7.32489813e+01 
 1.41253754e+06 -9.09849163e+00 -7.62687097e+01 
 1.58489319e+06 -9.99503872e+00 -7.91922180e+01 
 1.77827941e+06 -1.09148592e+01 -8.20362258e+01 
 1.99526231e+06 -1.18549564e+01 -8.48217422e+01 
 2.23872114e+06 -1.28129883e+01 -8.75732606e+01 
 2.51188643e+06 -1.37872806e+01 -9.03181689e+01 
 2.81838293e+06 -1.47768365e+01 -9.30863860e+01 
 3.16227766e+06 -1.57813535e+01 -9.59102276e+01 
 3.54813389e+06 -1.68012627e+01 -9.88244983e+01 
 3.98107171e+06 -1.78378077e+01 -1.01866814e+02 
 4.46683592e+06 -1.88931879e+01 -1.05078145e+02 
 5.01187234e+06 -1.99708043e+01 -1.08503497e+02 
 5.62341325e+06 -2.10756571e+01 -1.12192466e+02 
 6.30957344e+06 -2.22149206e+01 -1.16199070e+02 
 7.07945784e+06 -2.33986371e+01 -1.20580104e+02 
 7.94328235e+06 -2.46403550e+01 -1.25391913e+02 
 8.91250938e+06 -2.59575981e+01 -1.30687234e+02 
 1.00000000e+07 -2.73724708e+01 -1.36514338e+02 
 1.12201845e+07 -2.89130942e+01 -1.42917820e+02 
 1.25892541e+07 -3.06163224e+01 -1.49936165e+02 
 1.41253754e+07 -3.25315403e+01 -1.57591250e+02 
 1.58489319e+07 -3.47252250e+01 -1.65869772e+02 
 1.77827941e+07 -3.72868955e+01 -1.74702953e+02 
 1.99526231e+07 -4.03397781e+01 -1.83960534e+02 
 2.23872114e+07 -4.40677927e+01 -1.93500011e+02 
 2.51188643e+07 -4.88007394e+01 -2.03406266e+02 
 2.81838293e+07 -5.53484286e+01 -2.15215056e+02 
 3.16227766e+07 -6.68320602e+01 -2.47105301e+02 
 3.54813389e+07 -6.55928977e+01 -3.65710152e+02 
 3.98107171e+07 -6.02197987e+01 -3.81551541e+02 
 4.46683592e+07 -5.81465508e+01 -3.84362821e+02 
 5.01187234e+07 -5.71322995e+01 -3.83534990e+02 
 5.62341325e+07 -5.65113880e+01 -3.81148013e+02 
 6.30957344e+07 -5.60398287e+01 -3.78288207e+02 
 7.07945784e+07 -5.56384951e+01 -3.75561906e+02 
 7.94328235e+07 -5.52909122e+01 -3.73223384e+02 
 8.91250938e+07 -5.49967478e+01 -3.71312264e+02 
 1.00000000e+08 -5.47551159e+01 -3.69772602e+02 
 1.12201845e+08 -5.45615417e+01 -3.68524446e+02 
 1.25892541e+08 -5.44092288e+01 -3.67495425e+02 
 1.41253754e+08 -5.42907626e+01 -3.66629808e+02 
 1.58489319e+08 -5.41992225e+01 -3.65887853e+02 
 1.77827941e+08 -5.41286866e+01 -3.65242198e+02 
 1.99526231e+08 -5.40743457e+01 -3.64674126e+02 
 2.23872114e+08 -5.40324178e+01 -3.64170616e+02 
 2.51188643e+08 -5.39999857e+01 -3.63722277e+02 
 2.81838293e+08 -5.39748230e+01 -3.63322007e+02 
 3.16227766e+08 -5.39552390e+01 -3.62964163e+02 
 3.54813389e+08 -5.39399504e+01 -3.62644053e+02 
 3.98107171e+08 -5.39279819e+01 -3.62357649e+02 
 4.46683592e+08 -5.39185891e+01 -3.62101409e+02 
 5.01187234e+08 -5.39112020e+01 -3.61872177e+02 
 5.62341325e+08 -5.39053815e+01 -3.61667120e+02 
 6.30957344e+08 -5.39007885e+01 -3.61483686e+02 
 7.07945784e+08 -5.38971595e+01 -3.61319570e+02 
 7.94328235e+08 -5.38942891e+01 -3.61172694e+02 
 8.91250938e+08 -5.38920168e+01 -3.61041183e+02 
 1.00000000e+09 -5.38902166e+01 -3.60923346e+02 
